Freq.	V(vout)/(V(vinp)-V(vinn))
1.00000000000000e+03	(4.34689658390097e+01dB,-5.80442981167643e-02°)
1.12201845430196e+03	(4.34689646847507e+01dB,-6.51267678837374e-02°)
1.25892541179417e+03	(4.34689632316385e+01dB,-7.30734272839692e-02°)
1.41253754462275e+03	(4.34689614022280e+01dB,-8.19897224181939e-02°)
1.58489319246111e+03	(4.34689590992553e+01dB,-9.19939653542133e-02°)
1.77827941003892e+03	(4.34689561999107e+01dB,-1.03218903840203e-01°)
1.99526231496888e+03	(4.34689525498623e+01dB,-1.15813482493351e-01°)
2.23872113856834e+03	(4.34689479547139e+01dB,-1.29944818780088e-01°)
2.51188643150958e+03	(4.34689421681616e+01dB,-1.45800419944772e-01°)
2.81838293126445e+03	(4.34689348853327e+01dB,-1.63590670371107e-01°)
3.16227766016838e+03	(4.34689257168779e+01dB,-1.83551621930368e-01°)
3.54813389233575e+03	(4.34689141744891e+01dB,-2.05948124654831e-01°)
3.98107170553497e+03	(4.34688996435586e+01dB,-2.31077338750286e-01°)
4.46683592150963e+03	(4.34688813494100e+01dB,-2.59272674357714e-01°)
5.01187233627272e+03	(4.34688583178840e+01dB,-2.90908211015734e-01°)
5.62341325190348e+03	(4.34688293244393e+01dB,-3.26403654837460e-01°)
6.30957344480192e+03	(4.34687928234462e+01dB,-3.66229898152259e-01°)
7.07945784384137e+03	(4.34687468723418e+01dB,-4.10915254838656e-01°)
7.94328234724280e+03	(4.34686890252002e+01dB,-4.61052451830257e-01°)
8.91250938133744e+03	(4.34686161988649e+01dB,-5.17306467466077e-01°)
9.99999999999999e+03	(4.34685245193618e+01dB,-5.80423318321058e-01°)
1.12201845430196e+04	(4.34684091026355e+01dB,-6.51239904703645e-01°)
1.25892541179417e+04	(4.34682638071632e+01dB,-7.30695041640006e-01°)
1.41253754462275e+04	(4.34680808983636e+01dB,-8.19841810110185e-01°)
1.58489319246111e+04	(4.34678506399330e+01dB,-9.19861381570072e-01°)
1.77827941003892e+04	(4.34675607803965e+01dB,-1.03207848088973e+00°)
1.99526231496888e+04	(4.34671958962200e+01dB,-1.15797866635829e+00°)
2.23872113856833e+04	(4.34667365764901e+01dB,-1.29922762202878e+00°)
2.51188643150957e+04	(4.34661583956207e+01dB,-1.45769266723028e+00°)
2.81838293126445e+04	(4.34654306194760e+01dB,-1.63546669736819e+00°)
3.16227766016837e+04	(4.34645145768542e+01dB,-1.83489477315036e+00°)
3.54813389233575e+04	(4.34633616239122e+01dB,-2.05860357200007e+00°)
3.98107170553496e+04	(4.34619105744361e+01dB,-2.30953388988091e+00°)
4.46683592150962e+04	(4.34600845022885e+01dB,-2.59097635310837e+00°)
5.01187233627271e+04	(4.34577867040126e+01dB,-2.90661041106666e+00°)
5.62341325190348e+04	(4.34548956765340e+01dB,-3.26054658980175e+00°)
6.30957344480192e+04	(4.34512588216566e+01dB,-3.65737178682076e+00°)
7.07945784384136e+04	(4.34466846178951e+01dB,-4.10219714483249e+00°)
7.94328234724279e+04	(4.34409328797944e+01dB,-4.60070763917670e+00°)
8.91250938133743e+04	(4.34337026856648e+01dB,-5.15921196595961e+00°)
9.99999999999997e+04	(4.34246174922288e+01dB,-5.78469054226221e+00°)
1.12201845430196e+05	(4.34132068702576e+01dB,-6.48483834108374e+00°)
1.25892541179416e+05	(4.33988842468686e+01dB,-7.26809781067235e+00°)
1.41253754462275e+05	(4.33809200361572e+01dB,-8.14367517439107e+00°)
1.58489319246111e+05	(4.33584095860411e+01dB,-9.12153086398133e+00°)
1.77827941003892e+05	(4.33302355105207e+01dB,-1.02123316273233e+01°)
1.99526231496887e+05	(4.32950243808943e+01dB,-1.14273480903250e+01°)
2.23872113856833e+05	(4.32510983049883e+01dB,-1.27782772671739e+01°)
2.51188643150957e+05	(4.31964229912175e+01dB,-1.42769654386226e+01°)
2.81838293126444e+05	(4.31285553853663e+01dB,-1.59350038044241e+01°)
3.16227766016837e+05	(4.30445960883318e+01dB,-1.77631692186413e+01°)
3.54813389233574e+05	(4.29411545050666e+01dB,-1.97706878489413e+01°)
3.98107170553496e+05	(4.28143376482035e+01dB,-2.19643139476531e+01°)
4.46683592150961e+05	(4.26597764526936e+01dB,-2.43472433329757e+01°)
5.01187233627270e+05	(4.24727047859670e+01dB,-2.69179231161791e+01°)
5.62341325190347e+05	(4.22481049542896e+01dB,-2.96688748663951e+01°)
6.30957344480191e+05	(4.19809272450673e+01dB,-3.25857078920231e+01°)
7.07945784384135e+05	(4.16663790590393e+01dB,-3.56465445422397e+01°)
7.94328234724278e+05	(4.13002620799863e+01dB,-3.88220839171154e+01°)
8.91250938133741e+05	(4.08793175072350e+01dB,-4.20764701816720e+01°)
9.99999999999995e+05	(4.04015259285995e+01dB,-4.53689991548457e+01°)
1.12201845430196e+06	(3.98663070754434e+01dB,-4.86565164073443e+01°)
1.25892541179416e+06	(3.92745792094556e+01dB,-5.18961868103272e+01°)
1.41253754462275e+06	(3.86286656266048e+01dB,-5.50482146420516e+01°)
1.58489319246111e+06	(3.79320678798803e+01dB,-5.80781071934371e+01°)
1.77827941003891e+06	(3.71891506204130e+01dB,-6.09581968528781e+01°)
1.99526231496887e+06	(3.64047938785500e+01dB,-6.36683178075099e+01°)
2.23872113856833e+06	(3.55840639592480e+01dB,-6.61957066648732e+01°)
2.51188643150957e+06	(3.47319389448296e+01dB,-6.85343133630976e+01°)
2.81838293126444e+06	(3.38531061572871e+01dB,-7.06837527529683e+01°)
3.16227766016836e+06	(3.29518327962055e+01dB,-7.26481109953655e+01°)
3.54813389233573e+06	(3.20319003018927e+01dB,-7.44347704342140e+01°)
3.98107170553495e+06	(3.10965879921968e+01dB,-7.60533565440098e+01°)
4.46683592150961e+06	(3.01486908759746e+01dB,-7.75148577684325e+01°)
5.01187233627269e+06	(2.91905584238558e+01dB,-7.88309301800574e+01°)
5.62341325190346e+06	(2.82241440397592e+01dB,-8.00133750250306e+01°)
6.30957344480190e+06	(2.72510579769035e+01dB,-8.10737649271023e+01°)
7.07945784384134e+06	(2.62726190482804e+01dB,-8.20231907739798e+01°)
7.94328234724277e+06	(2.52899024515136e+01dB,-8.28721021001676e+01°)
8.91250938133740e+06	(2.43037824464649e+01dB,-8.36302172691663e+01°)
9.99999999999994e+06	(2.33149695424383e+01dB,-8.43064839024799e+01°)
1.12201845430196e+07	(2.23240424312760e+01dB,-8.49090742703581e+01°)
1.25892541179416e+07	(2.13314752184607e+01dB,-8.54454040320732e+01°)
1.41253754462275e+07	(2.03376606813326e+01dB,-8.59221659588223e+01°)
1.58489319246110e+07	(1.93429303501525e+01dB,-8.63453728661878e+01°)
1.77827941003891e+07	(1.83475722328009e+01dB,-8.67204062674725e+01°)
1.99526231496887e+07	(1.73518469889036e+01dB,-8.70520692690520e+01°)
2.23872113856832e+07	(1.63560033223148e+01dB,-8.73446442710104e+01°)
2.51188643150956e+07	(1.53602932657068e+01dB,-8.76019581663258e+01°)
2.81838293126443e+07	(1.43649878545058e+01dB,-8.78274601113978e+01°)
3.16227766016836e+07	(1.33703933470040e+01dB,-8.80243193614118e+01°)
3.54813389233573e+07	(1.23768676089899e+01dB,-8.81955527824641e+01°)
3.98107170553494e+07	(1.13848354795788e+01dB,-8.83441925599796e+01°)
4.46683592150960e+07	(1.03948009329061e+01dB,-8.84735032459755e+01°)
5.01187233627269e+07	(9.40735278561949e+00dB,-8.85872524628794e+01°)
5.62341325190345e+07	(8.42315986513441e+00dB,-8.86900308264160e+01°)
6.30957344480189e+07	(7.44295123778121e+00dB,-8.87876044205774e+01°)
7.07945784384133e+07	(6.46747755503373e+00dB,-8.88872690032611e+01°)
7.94328234724275e+07	(5.49745092821714e+00dB,-8.89981608314150e+01°)
8.91250938133739e+07	(4.53346305925040e+00dB,-8.91314660364909e+01°)
9.99999999999992e+07	(3.57588488360708e+00dB,-8.93004608170391e+01°)
1.12201845430195e+08	(2.62475600218411e+00dB,-8.95203131442753e+01°)
1.25892541179416e+08	(1.67967850104545e+00dB,-8.98075922943716e+01°)
1.41253754462274e+08	(7.39735840258132e-01dB,-9.01794760677614e+01°)
1.58489319246110e+08	(-1.96539873488365e-01dB,-9.06527202331257e+01°)
1.77827941003891e+08	(-1.13113357341072e+00dB,-9.12425455381882e+01°)
1.99526231496886e+08	(-2.06644101513147e+00dB,-9.19616684985565e+01°)
2.23872113856832e+08	(-3.00510595932809e+00dB,-9.28197099143940e+01°)
2.51188643150956e+08	(-3.94983503373145e+00dB,-9.38231365557943e+01°)
2.81838293126443e+08	(-4.90323347274145e+00dB,-9.49757461106255e+01°)
3.16227766016835e+08	(-5.86769914350005e+00dB,-9.62795506651626e+01°)
3.54813389233572e+08	(-6.84539438835338e+00dB,-9.77358130988245e+01°)
3.98107170553494e+08	(-7.83829341468435e+00dB,-9.93459763557947e+01°)
4.46683592150959e+08	(-8.84828571066820e+00dB,-1.01112285848668e+02°)
5.01187233627268e+08	(-9.87730761999014e+00dB,-1.03037999989029e+02°)
5.62341325190344e+08	(-1.09274740693928e+01dB,-1.05127172506962e+02°)
6.30957344480188e+08	(-1.20011868100660e+01dB,-1.07384051423822e+02°)
7.07945784384132e+08	(-1.31012006605186e+01dB,-1.09812173884965e+02°)
7.94328234724274e+08	(-1.42306331046058e+01dB,-1.12413257779808e+02°)
8.91250938133737e+08	(-1.53929055613460e+01dB,-1.15186016145388e+02°)
9.99999999999991e+08	(-1.65916088260267e+01dB,-1.18125056546654e+02°)
1.12201845430195e+09	(-1.78302932971375e+01dB,-1.21220068282515e+02°)
1.25892541179416e+09	(-1.91121982981639e+01dB,-1.24455523003385e+02°)
1.41253754462274e+09	(-2.04399528293874e+01dB,-1.27811087731824e+02°)
1.58489319246110e+09	(-2.18152974173645e+01dB,-1.31262847880648e+02°)
1.77827941003891e+09	(-2.32388853302486e+01dB,-1.34785262021215e+02°)
1.99526231496886e+09	(-2.47102135738621e+01dB,-1.38353560133448e+02°)
2.23872113856832e+09	(-2.62277070466111e+01dB,-1.41946128182344e+02°)
2.51188643150955e+09	(-2.77889388076365e+01dB,-1.45546375112319e+02°)
2.81838293126442e+09	(-2.93909293258316e+01dB,-1.49143697371054e+02°)
3.16227766016835e+09	(-3.10304440102032e+01dB,-1.52733415445501e+02°)
3.54813389233572e+09	(-3.27042120210309e+01dB,-1.56315863686920e+02°)
3.98107170553493e+09	(-3.44090196492206e+01dB,-1.59895047174236e+02°)
4.46683592150958e+09	(-3.61416758326825e+01dB,-1.63477345106778e+02°)
5.01187233627267e+09	(-3.78988870005074e+01dB,-1.67070622939070e+02°)
5.62341325190343e+09	(-3.96770981483764e+01dB,-1.70683882319707e+02°)
6.30957344480186e+09	(-4.14723525051005e+01dB,-1.74327340322132e+02°)
7.07945784384130e+09	(-4.32802008156870e+01dB,-1.78012681553165e+02°)
7.94328234724273e+09	(-4.50956664885281e+01dB,1.78246798062458e+02°)
8.91250938133735e+09	(-4.69132558824400e+01dB,1.74436366141534e+02°)
9.99999999999989e+09	(-4.87269982730370e+01dB,1.70540446409955e+02°)
1.12201845430195e+10	(-5.05305054433331e+01dB,1.66543622883804e+02°)
1.25892541179415e+10	(-5.23170509924566e+01dB,1.62431970406510e+02°)
1.41253754462274e+10	(-5.40796787947274e+01dB,1.58194570213927e+02°)
1.58489319246109e+10	(-5.58113544196441e+01dB,1.53825025067324e+02°)
1.77827941003890e+10	(-5.75051703048213e+01dB,1.49322751178007e+02°)
1.99526231496886e+10	(-5.91546044191237e+01dB,1.44693802387749e+02°)
2.23872113856831e+10	(-6.07538146952113e+01dB,1.39950997124525e+02°)
2.51188643150955e+10	(-6.22979321485615e+01dB,1.35113193604231e+02°)
2.81838293126442e+10	(-6.37833013507763e+01dB,1.30203701109694e+02°)
3.16227766016834e+10	(-6.52076150991753e+01dB,1.25248001751602e+02°)
3.54813389233571e+10	(-6.65699045889399e+01dB,1.20271133527494e+02°)
3.98107170553492e+10	(-6.78703745007301e+01dB,1.15295187279653e+02°)
4.46683592150957e+10	(-6.91101052497573e+01dB,1.10337356326444e+02°)
5.01187233627266e+10	(-7.02906711898814e+01dB,1.05408854204060e+02°)
5.62341325190342e+10	(-7.14137362677754e+01dB,1.00514832078119e+02°)
6.30957344480185e+10	(-7.24806865158115e+01dB,9.56552459986354e+01°)
7.07945784384129e+10	(-7.34923464805924e+01dB,9.08264902947055e+01°)
7.94328234724271e+10	(-7.44488106508373e+01dB,8.60235390329404e+01°)
8.91250938133734e+10	(-7.53494057885595e+01dB,8.12423080378525e+01°)
1.00000000000000e+11	(-7.61927869812349e+01dB,7.64819427473886e+01°)
